T449C 000:034.030   SEGGER J-Link V6.82a Log File
T449C 000:034.153   DLL Compiled: Jul 21 2020 11:35:52
T449C 000:034.159   Logging started @ 2020-08-07 06:05
T449C 000:034.165 - 34.168ms
T449C 000:034.176 JLINK_SetWarnOutHandler(...)
T449C 000:034.184 - 0.010ms
T449C 000:034.191 JLINK_OpenEx(...)
T449C 000:038.357   Firmware: J-Link V9 compiled Dec 13 2019 11:14:50
T449C 000:038.696   Decompressing FW timestamp took 307 us
T449C 000:046.601   Hardware: V9.60
T449C 000:046.627   S/N: 69666417
T449C 000:046.636   OEM: SEGGER
T449C 000:046.646   Feature(s): RDI, GDB, FlashDL, FlashBP, JFlash
T449C 000:048.763   TELNET listener socket opened on port 19021
T449C 000:048.909   WEBSRV Starting webserver
T449C 000:048.979   WEBSRV Failed to put socket into listener state (port 19081)
T449C 000:049.047   WEBSRV Webserver running on local port 19082
T449C 000:049.059 - 14.870ms returns "O.K."
T449C 000:049.094 JLINK_SetErrorOutHandler(...)
T449C 000:049.101 - 0.010ms
T449C 000:049.118 JLINK_ExecCommand("ProjectFile = "D:\Keill_Code\MKL62BA_STD\MDK-ARM\JLinkSettings.ini"", ...). 
T449C 000:058.966   Ref file found at: C:\Keil_v5\ARM\Segger\JLinkDevices.ref
T449C 000:059.057   XML referenced by ref file: C:\Program Files (x86)\SEGGER\JLink\JLinkDevices.xml
T449C 000:059.828   C:\Program Files (x86)\SEGGER\JLink\JLinkDevices.xml evaluated successfully.
T449C 000:089.504 - 40.396ms returns 0x00
T449C 000:091.573 JLINK_ExecCommand("Device = STM32L151C8xxA", ...). 
T449C 000:093.488   Device "STM32L151C8-A" selected.
T449C 000:094.517 - 2.920ms returns 0x00
T449C 000:094.543 JLINK_GetHardwareVersion()
T449C 000:094.565 - 0.025ms returns 96000
T449C 000:094.573 JLINK_GetDLLVersion()
T449C 000:094.579 - 0.009ms returns 68201
T449C 000:094.586 JLINK_GetOEMString(...)
T449C 000:094.594 JLINK_GetFirmwareString(...)
T449C 000:094.600 - 0.009ms
T449C 000:100.277 JLINK_GetDLLVersion()
T449C 000:100.296 - 0.022ms returns 68201
T449C 000:100.305 JLINK_GetCompileDateTime()
T449C 000:100.311 - 0.008ms
T449C 000:101.845 JLINK_GetFirmwareString(...)
T449C 000:101.857 - 0.014ms
T449C 000:105.338 JLINK_GetHardwareVersion()
T449C 000:105.355 - 0.020ms returns 96000
T449C 000:106.980 JLINK_GetSN()
T449C 000:106.992 - 0.015ms returns 69666417
T449C 000:108.621 JLINK_GetOEMString(...)
T449C 000:112.116 JLINK_TIF_Select(JLINKARM_TIF_SWD)
T449C 000:114.732 - 2.632ms returns 0x00
T449C 000:114.775 JLINK_HasError()
T449C 000:114.794 JLINK_SetSpeed(5000)
T449C 000:115.982 - 1.195ms
T449C 000:116.015 JLINK_GetId()
T449C 000:125.884   Found SW-DP with ID 0x2BA01477
T449C 000:142.371   Found SW-DP with ID 0x2BA01477
T449C 000:143.866   Old FW that does not support reading DPIDR via DAP jobs
T449C 000:147.047   Unknown DP version. Assuming DPv0
T449C 000:148.925   Scanning AP map to find all available APs
T449C 000:151.442   AP[1]: Stopped AP scan as end of AP map has been reached
T449C 000:153.150   AP[0]: AHB-AP (IDR: 0x24770011)
T449C 000:155.281   Iterating through AP map to find AHB-AP to use
T449C 000:158.663   AP[0]: Core found
T449C 000:160.954   AP[0]: AHB-AP ROM base: 0xE00FF000
T449C 000:163.395   CPUID register: 0x412FC230. Implementer code: 0x41 (ARM)
T449C 000:165.256   Found Cortex-M3 r2p0, Little endian.
T449C 000:266.726   -- Max. mem block: 0x0000D338
T449C 000:266.757   CPU_ReadMem(4 bytes @ 0xE000EDF0)
T449C 000:269.522   CPU_ReadMem(4 bytes @ 0xE0002000)
T449C 000:272.093   FPUnit: 6 code (BP) slots and 2 literal slots
T449C 000:272.120   CPU_ReadMem(4 bytes @ 0xE000EDFC)
T449C 000:272.455   CPU_ReadMem(4 bytes @ 0xE0001000)
T449C 000:272.770   CPU_WriteMem(4 bytes @ 0xE0001000)
T449C 000:273.035   CPU_ReadMem(4 bytes @ 0xE000ED88)
T449C 000:273.333   CPU_WriteMem(4 bytes @ 0xE000ED88)
T449C 000:273.614   CPU_ReadMem(4 bytes @ 0xE000ED88)
T449C 000:273.846   CPU_WriteMem(4 bytes @ 0xE000ED88)
T449C 000:275.841   CoreSight components:
T449C 000:277.550   ROMTbl[0] @ E00FF000
T449C 000:277.568   CPU_ReadMem(64 bytes @ 0xE00FF000)
T449C 000:278.236   CPU_ReadMem(32 bytes @ 0xE000EFE0)
T449C 000:281.027   ROMTbl[0][0]: E000E000, CID: B105E00D, PID: 002BB000 SCS
T449C 000:281.082   CPU_ReadMem(32 bytes @ 0xE0001FE0)
T449C 000:283.624   ROMTbl[0][1]: E0001000, CID: B105E00D, PID: 002BB002 DWT
T449C 000:283.646   CPU_ReadMem(32 bytes @ 0xE0002FE0)
T449C 000:286.071   ROMTbl[0][2]: E0002000, CID: B105E00D, PID: 002BB003 FPB
T449C 000:286.092   CPU_ReadMem(32 bytes @ 0xE0000FE0)
T449C 000:288.390   ROMTbl[0][3]: E0000000, CID: B105E00D, PID: 002BB001 ITM
T449C 000:288.411   CPU_ReadMem(32 bytes @ 0xE0040FE0)
T449C 000:290.622   ROMTbl[0][4]: E0040000, CID: B105900D, PID: 002BB923 TPIU-Lite
T449C 000:290.641   CPU_ReadMem(32 bytes @ 0xE0041FE0)
T449C 000:292.847   ROMTbl[0][5]: E0041000, CID: B105900D, PID: 002BB924 ETM-M3
T449C 000:293.191 - 177.184ms returns 0x2BA01477
T449C 000:293.225 JLINK_GetDLLVersion()
T449C 000:293.233 - 0.010ms returns 68201
T449C 000:293.241 JLINK_CORE_GetFound()
T449C 000:293.247 - 0.009ms returns 0x30000FF
T449C 000:293.255 JLINK_GetDebugInfo(0x100 = JLINKARM_ROM_TABLE_ADDR_INDEX)
T449C 000:293.281   Value=0xE00FF000
T449C 000:293.289 - 0.037ms returns 0
T449C 000:295.111 JLINK_GetDebugInfo(0x100 = JLINKARM_ROM_TABLE_ADDR_INDEX)
T449C 000:295.127   Value=0xE00FF000
T449C 000:295.136 - 0.028ms returns 0
T449C 000:295.144 JLINK_GetDebugInfo(0x101 = JLINKARM_DEBUG_INFO_ETM_ADDR_INDEX)
T449C 000:295.151   Value=0xE0041000
T449C 000:295.159 - 0.018ms returns 0
T449C 000:295.167 JLINK_GetDebugInfo(0x102 = JLINKARM_DEBUG_INFO_MTB_ADDR_INDEX)
T449C 000:295.173   Value=0x00000000
T449C 000:295.181 - 0.017ms returns 0
T449C 000:295.189 JLINK_GetDebugInfo(0x103 = JLINKARM_DEBUG_INFO_TPIU_ADDR_INDEX)
T449C 000:295.195   Value=0xE0040000
T449C 000:295.203 - 0.017ms returns 0
T449C 000:295.211 JLINK_GetDebugInfo(0x104 = JLINKARM_DEBUG_INFO_ITM_ADDR_INDEX)
T449C 000:295.217   Value=0xE0000000
T449C 000:295.225 - 0.017ms returns 0
T449C 000:295.233 JLINK_GetDebugInfo(0x105 = JLINKARM_DEBUG_INFO_DWT_ADDR_INDEX)
T449C 000:295.239   Value=0xE0001000
T449C 000:295.247 - 0.017ms returns 0
T449C 000:295.255 JLINK_GetDebugInfo(0x106 = JLINKARM_DEBUG_INFO_FPB_ADDR_INDEX)
T449C 000:295.261   Value=0xE0002000
T449C 000:295.269 - 0.017ms returns 0
T449C 000:295.276 JLINK_GetDebugInfo(0x107 = JLINKARM_DEBUG_INFO_NVIC_ADDR_INDEX)
T449C 000:295.283   Value=0xE000E000
T449C 000:295.291 - 0.017ms returns 0
T449C 000:295.298 JLINK_GetDebugInfo(0x10C = JLINKARM_DEBUG_INFO_DBG_ADDR_INDEX)
T449C 000:295.304   Value=0xE000EDF0
T449C 000:295.313 - 0.017ms returns 0
T449C 000:295.325 JLINK_ReadMemU32(0xE000ED00, 0x1 Items)
T449C 000:295.346   CPU_ReadMem(4 bytes @ 0xE000ED00)
T449C 000:296.136   Data:  30 C2 2F 41
T449C 000:296.152   Debug reg: CPUID
T449C 000:296.177 - 0.855ms returns 1 (0x1)
T449C 000:296.204 JLINK_HasError()
T449C 000:296.214 JLINK_SetResetType(JLINKARM_CM3_RESET_TYPE_NORMAL)
T449C 000:296.220 - 0.009ms returns JLINKARM_CM3_RESET_TYPE_NORMAL
T449C 000:296.228 JLINK_Reset()
T449C 000:297.104   CPU is running
T449C 000:297.123   CPU_WriteMem(4 bytes @ 0xE000EDF0)
T449C 000:297.584   CPU is running
T449C 000:297.597   CPU_WriteMem(4 bytes @ 0xE000EDFC)
T449C 000:299.783   Reset: Halt core after reset via DEMCR.VC_CORERESET.
T449C 000:302.044   Reset: Reset device via AIRCR.SYSRESETREQ.
T449C 000:302.061   CPU is running
T449C 000:302.072   CPU_WriteMem(4 bytes @ 0xE000ED0C)
T449C 000:354.324   CPU_ReadMem(4 bytes @ 0xE000EDF0)
T449C 000:354.662   CPU_ReadMem(4 bytes @ 0xE000EDF0)
T449C 000:355.007   CPU is running
T449C 000:355.037   CPU_WriteMem(4 bytes @ 0xE000EDF0)
T449C 000:355.324   CPU is running
T449C 000:355.353   CPU_WriteMem(4 bytes @ 0xE000EDFC)
T449C 000:360.828   CPU_ReadMem(4 bytes @ 0xE000EDF0)
T449C 000:363.548   CPU_WriteMem(4 bytes @ 0xE0002000)
T449C 000:363.967   CPU_ReadMem(4 bytes @ 0xE000EDFC)
T449C 000:364.325   CPU_ReadMem(4 bytes @ 0xE0001000)
T449C 000:364.777 - 68.555ms
T449C 000:364.814 JLINK_Halt()
T449C 000:364.822 - 0.011ms returns 0x00
T449C 000:364.831 JLINK_IsHalted()
T449C 000:364.838 - 0.047ms returns TRUE
T449C 000:364.887 JLINK_ReadMemU32(0xE000EDF0, 0x1 Items)
T449C 000:364.900   CPU_ReadMem(4 bytes @ 0xE000EDF0)
T449C 000:381.445   Data:  03 00 03 00
T449C 000:381.469   Debug reg: DHCSR
T449C 000:381.478 - 16.594ms returns 1 (0x1)
T449C 000:381.514 JLINK_WriteU32_64(0xE000EDF0, 0xA05F0003)
T449C 000:381.524   Debug reg: DHCSR
T449C 000:381.547   CPU_WriteMem(4 bytes @ 0xE000EDF0)
T449C 000:381.956 - 0.450ms returns 0 (0x00000000)
T449C 000:381.987 JLINK_WriteU32_64(0xE000EDFC, 0x01000000)
T449C 000:381.995   Debug reg: DEMCR
T449C 000:382.010   CPU_WriteMem(4 bytes @ 0xE000EDFC)
T449C 000:382.468 - 0.489ms returns 0 (0x00000000)
T449C 000:389.235 JLINK_GetHWStatus(...)
T449C 000:389.518 - 0.292ms returns 0
T449C 000:395.668 JLINK_GetNumBPUnits(Type = 0xFFFFFF00)
T449C 000:395.712 - 0.047ms returns 0x06
T449C 000:395.721 JLINK_GetNumBPUnits(Type = 0xF0)
T449C 000:395.728 - 0.010ms returns 0x2000
T449C 000:395.736 JLINK_GetNumWPUnits()
T449C 000:395.742 - 0.009ms returns 4
T449C 000:401.792 JLINK_GetSpeed()
T449C 000:401.813 - 0.025ms returns 4000
T449C 000:404.906 JLINK_ReadMemU32(0xE000E004, 0x1 Items)
T449C 000:404.931   CPU_ReadMem(4 bytes @ 0xE000E004)
T449C 000:405.379   Data:  01 00 00 00
T449C 000:405.393 - 0.490ms returns 1 (0x1)
T449C 000:405.418 JLINK_ReadMemU32(0xE000E004, 0x1 Items)
T449C 000:405.430   CPU_ReadMem(4 bytes @ 0xE000E004)
T449C 000:405.716   Data:  01 00 00 00
T449C 000:405.746 - 0.331ms returns 1 (0x1)
T449C 000:405.771 JLINK_WriteMem(0xE0001000, 0x1C Bytes, ...)
T449C 000:405.779   Data:  01 00 00 00 00 00 00 00 00 00 00 00 00 00 00 00 ...
T449C 000:406.195   CPU_WriteMem(28 bytes @ 0xE0001000)
T449C 000:406.730 - 0.966ms returns 0x1C
T449C 000:406.759 JLINK_ReadMem(0xE0001000, 0x1C Bytes, ...)
T449C 000:406.772   CPU_ReadMem(28 bytes @ 0xE0001000)
T449C 000:407.212   Data:  01 00 00 40 00 00 00 00 00 00 00 00 00 00 00 00 ...
T449C 000:407.226 - 0.469ms returns 0
T449C 000:407.253 JLINK_Halt()
T449C 000:407.261 - 0.010ms returns 0x00
T449C 000:407.269 JLINK_IsHalted()
T449C 000:407.276 - 0.010ms returns TRUE
T449C 000:410.127 JLINK_WriteMem(0x20000000, 0x218 Bytes, ...)
T449C 000:410.156   Data:  00 BE 0A E0 0D 78 2D 06 68 40 08 24 40 00 00 D3 ...
T449C 000:410.863   CPU_WriteMem(536 bytes @ 0x20000000)
T449C 000:413.295 - 3.188ms returns 0x218
T449C 000:413.401 JLINK_HasError()
T449C 000:413.413 JLINK_WriteReg(R0, 0x08000000)
T449C 000:413.423 - 0.013ms returns 0
T449C 000:413.432 JLINK_WriteReg(R1, 0x01E84800)
T449C 000:413.439 - 0.010ms returns 0
T449C 000:413.447 JLINK_WriteReg(R2, 0x00000001)
T449C 000:413.453 - 0.009ms returns 0
T449C 000:413.461 JLINK_WriteReg(R3, 0x00000000)
T449C 000:413.468 - 0.009ms returns 0
T449C 000:413.475 JLINK_WriteReg(R4, 0x00000000)
T449C 000:413.482 - 0.009ms returns 0
T449C 000:413.490 JLINK_WriteReg(R5, 0x00000000)
T449C 000:413.496 - 0.009ms returns 0
T449C 000:413.504 JLINK_WriteReg(R6, 0x00000000)
T449C 000:413.526 - 0.025ms returns 0
T449C 000:413.534 JLINK_WriteReg(R7, 0x00000000)
T449C 000:413.540 - 0.009ms returns 0
T449C 000:413.547 JLINK_WriteReg(R8, 0x00000000)
T449C 000:413.562 - 0.017ms returns 0
T449C 000:413.569 JLINK_WriteReg(R9, 0x20000214)
T449C 000:413.576 - 0.009ms returns 0
T449C 000:413.583 JLINK_WriteReg(R10, 0x00000000)
T449C 000:413.590 - 0.009ms returns 0
T449C 000:413.599 JLINK_WriteReg(R11, 0x00000000)
T449C 000:413.622 - 0.026ms returns 0
T449C 000:413.630 JLINK_WriteReg(R12, 0x00000000)
T449C 000:413.637 - 0.009ms returns 0
T449C 000:413.644 JLINK_WriteReg(R13 (SP), 0x20001000)
T449C 000:413.652 - 0.010ms returns 0
T449C 000:413.660 JLINK_WriteReg(R14, 0x20000001)
T449C 000:413.667 - 0.009ms returns 0
T449C 000:413.674 JLINK_WriteReg(R15 (PC), 0x20000020)
T449C 000:413.683 - 0.011ms returns 0
T449C 000:413.691 JLINK_WriteReg(XPSR, 0x01000000)
T449C 000:413.698 - 0.010ms returns 0
T449C 000:413.706 JLINK_WriteReg(MSP, 0x20001000)
T449C 000:413.712 - 0.009ms returns 0
T449C 000:413.720 JLINK_WriteReg(PSP, 0x20001000)
T449C 000:413.782 - 0.067ms returns 0
T449C 000:413.793 JLINK_WriteReg(CFBP, 0x00000000)
T449C 000:413.799 - 0.009ms returns 0
T449C 000:413.807 JLINK_SetBPEx(Addr = 0x20000000, Type = 0xFFFFFFF2)
T449C 000:413.819   CPU_ReadMem(2 bytes @ 0x20000000)
T449C 000:422.628 - 8.832ms returns 0x00000001
T449C 000:422.681 JLINK_Go()
T449C 000:422.694   CPU_WriteMem(2 bytes @ 0x20000000)
T449C 000:423.080   CPU_ReadMem(4 bytes @ 0xE0001000)
T449C 000:423.442   CPU_WriteMem(4 bytes @ 0xE0002008)
T449C 000:423.457   CPU_WriteMem(4 bytes @ 0xE000200C)
T449C 000:423.466   CPU_WriteMem(4 bytes @ 0xE0002010)
T449C 000:423.475   CPU_WriteMem(4 bytes @ 0xE0002014)
T449C 000:423.484   CPU_WriteMem(4 bytes @ 0xE0002018)
T449C 000:423.493   CPU_WriteMem(4 bytes @ 0xE000201C)
T449C 000:424.630   CPU_WriteMem(4 bytes @ 0xE0001004)
T449C 000:427.097 - 4.423ms
T449C 000:427.130 JLINK_IsHalted()
T449C 000:429.304   CPU_ReadMem(2 bytes @ 0x20000000)
T449C 000:429.598 - 2.475ms returns TRUE
T449C 000:429.629 JLINK_ReadReg(R15 (PC))
T449C 000:429.640 - 0.014ms returns 0x20000000
T449C 000:429.650 JLINK_ClrBPEx(BPHandle = 0x00000001)
T449C 000:429.657 - 0.010ms returns 0x00
T449C 000:429.669 JLINK_ReadReg(R0)
T449C 000:429.677 - 0.010ms returns 0x00000000
T449C 000:430.116 JLINK_HasError()
T449C 000:430.137 JLINK_WriteReg(R0, 0x08000000)
T449C 000:430.163 - 0.029ms returns 0
T449C 000:430.172 JLINK_WriteReg(R1, 0x00000100)
T449C 000:430.179 - 0.010ms returns 0
T449C 000:430.186 JLINK_WriteReg(R2, 0x00000000)
T449C 000:430.193 - 0.009ms returns 0
T449C 000:430.200 JLINK_WriteReg(R3, 0x00000000)
T449C 000:430.207 - 0.009ms returns 0
T449C 000:430.214 JLINK_WriteReg(R4, 0x00000000)
T449C 000:430.221 - 0.009ms returns 0
T449C 000:430.228 JLINK_WriteReg(R5, 0x00000000)
T449C 000:430.234 - 0.009ms returns 0
T449C 000:430.242 JLINK_WriteReg(R6, 0x00000000)
T449C 000:430.248 - 0.009ms returns 0
T449C 000:430.256 JLINK_WriteReg(R7, 0x00000000)
T449C 000:430.262 - 0.009ms returns 0
T449C 000:430.270 JLINK_WriteReg(R8, 0x00000000)
T449C 000:430.276 - 0.009ms returns 0
T449C 000:430.284 JLINK_WriteReg(R9, 0x20000214)
T449C 000:430.290 - 0.009ms returns 0
T449C 000:430.297 JLINK_WriteReg(R10, 0x00000000)
T449C 000:430.304 - 0.009ms returns 0
T449C 000:430.311 JLINK_WriteReg(R11, 0x00000000)
T449C 000:430.317 - 0.009ms returns 0
T449C 000:430.325 JLINK_WriteReg(R12, 0x00000000)
T449C 000:430.331 - 0.009ms returns 0
T449C 000:430.339 JLINK_WriteReg(R13 (SP), 0x20001000)
T449C 000:430.346 - 0.009ms returns 0
T449C 000:430.353 JLINK_WriteReg(R14, 0x20000001)
T449C 000:430.360 - 0.009ms returns 0
T449C 000:430.367 JLINK_WriteReg(R15 (PC), 0x200000FA)
T449C 000:430.374 - 0.009ms returns 0
T449C 000:430.381 JLINK_WriteReg(XPSR, 0x01000000)
T449C 000:430.388 - 0.009ms returns 0
T449C 000:430.395 JLINK_WriteReg(MSP, 0x20001000)
T449C 000:430.401 - 0.009ms returns 0
T449C 000:430.409 JLINK_WriteReg(PSP, 0x20001000)
T449C 000:430.415 - 0.009ms returns 0
T449C 000:430.423 JLINK_WriteReg(CFBP, 0x00000000)
T449C 000:430.429 - 0.009ms returns 0
T449C 000:430.437 JLINK_SetBPEx(Addr = 0x20000000, Type = 0xFFFFFFF2)
T449C 000:430.444 - 0.010ms returns 0x00000002
T449C 000:430.452 JLINK_Go()
T449C 000:430.467   CPU_ReadMem(4 bytes @ 0xE0001000)
T449C 000:432.977 - 2.534ms
T449C 000:433.008 JLINK_IsHalted()
T449C 000:435.195   CPU_ReadMem(2 bytes @ 0x20000000)
T449C 000:435.510 - 2.508ms returns TRUE
T449C 000:435.542 JLINK_ReadReg(R15 (PC))
T449C 000:435.554 - 0.014ms returns 0x20000000
T449C 000:435.562 JLINK_ClrBPEx(BPHandle = 0x00000002)
T449C 000:435.595 - 0.035ms returns 0x00
T449C 000:435.603 JLINK_ReadReg(R0)
T449C 000:435.610 - 0.010ms returns 0x00000001
T449C 000:435.618 JLINK_HasError()
T449C 000:435.627 JLINK_WriteReg(R0, 0x08000000)
T449C 000:435.634 - 0.026ms returns 0
T449C 000:435.657 JLINK_WriteReg(R1, 0x00000100)
T449C 000:435.663 - 0.009ms returns 0
T449C 000:435.671 JLINK_WriteReg(R2, 0x00000000)
T449C 000:435.677 - 0.009ms returns 0
T449C 000:435.685 JLINK_WriteReg(R3, 0x00000000)
T449C 000:435.694 - 0.014ms returns 0
T449C 000:435.704 JLINK_WriteReg(R4, 0x00000000)
T449C 000:435.710 - 0.009ms returns 0
T449C 000:435.718 JLINK_WriteReg(R5, 0x00000000)
T449C 000:435.724 - 0.009ms returns 0
T449C 000:435.731 JLINK_WriteReg(R6, 0x00000000)
T449C 000:435.738 - 0.009ms returns 0
T449C 000:435.745 JLINK_WriteReg(R7, 0x00000000)
T449C 000:435.751 - 0.009ms returns 0
T449C 000:435.759 JLINK_WriteReg(R8, 0x00000000)
T449C 000:435.765 - 0.009ms returns 0
T449C 000:435.773 JLINK_WriteReg(R9, 0x20000214)
T449C 000:435.779 - 0.009ms returns 0
T449C 000:435.786 JLINK_WriteReg(R10, 0x00000000)
T449C 000:435.793 - 0.009ms returns 0
T449C 000:435.800 JLINK_WriteReg(R11, 0x00000000)
T449C 000:435.806 - 0.009ms returns 0
T449C 000:435.814 JLINK_WriteReg(R12, 0x00000000)
T449C 000:435.820 - 0.009ms returns 0
T449C 000:435.827 JLINK_WriteReg(R13 (SP), 0x20001000)
T449C 000:435.834 - 0.009ms returns 0
T449C 000:435.841 JLINK_WriteReg(R14, 0x20000001)
T449C 000:435.848 - 0.009ms returns 0
T449C 000:435.855 JLINK_WriteReg(R15 (PC), 0x200000A8)
T449C 000:435.862 - 0.009ms returns 0
T449C 000:435.869 JLINK_WriteReg(XPSR, 0x01000000)
T449C 000:435.875 - 0.009ms returns 0
T449C 000:435.883 JLINK_WriteReg(MSP, 0x20001000)
T449C 000:435.889 - 0.009ms returns 0
T449C 000:435.897 JLINK_WriteReg(PSP, 0x20001000)
T449C 000:435.903 - 0.009ms returns 0
T449C 000:435.910 JLINK_WriteReg(CFBP, 0x00000000)
T449C 000:435.917 - 0.009ms returns 0
T449C 000:435.924 JLINK_SetBPEx(Addr = 0x20000000, Type = 0xFFFFFFF2)
T449C 000:435.931 - 0.010ms returns 0x00000003
T449C 000:435.939 JLINK_Go()
T449C 000:435.950   CPU_ReadMem(4 bytes @ 0xE0001000)
T449C 000:438.354 - 2.422ms
T449C 000:438.382 JLINK_IsHalted()
T449C 000:438.691 - 0.315ms returns FALSE
T449C 000:438.717 JLINK_HasError()
T449C 000:465.569 JLINK_IsHalted()
T449C 000:468.107   CPU_ReadMem(2 bytes @ 0x20000000)
T449C 000:468.463 - 2.920ms returns TRUE
T449C 000:468.510 JLINK_ReadReg(R15 (PC))
T449C 000:468.536 - 0.028ms returns 0x20000000
T449C 000:468.544 JLINK_ClrBPEx(BPHandle = 0x00000003)
T449C 000:468.551 - 0.010ms returns 0x00
T449C 000:468.559 JLINK_ReadReg(R0)
T449C 000:468.566 - 0.009ms returns 0x00000000
T449C 000:468.991 JLINK_HasError()
T449C 000:469.003 JLINK_WriteReg(R0, 0x08000100)
T449C 000:469.012 - 0.011ms returns 0
T449C 000:469.020 JLINK_WriteReg(R1, 0x00000100)
T449C 000:469.026 - 0.009ms returns 0
T449C 000:469.034 JLINK_WriteReg(R2, 0x00000000)
T449C 000:469.040 - 0.009ms returns 0
T449C 000:469.048 JLINK_WriteReg(R3, 0x00000000)
T449C 000:469.054 - 0.009ms returns 0
T449C 000:469.061 JLINK_WriteReg(R4, 0x00000000)
T449C 000:469.068 - 0.009ms returns 0
T449C 000:469.075 JLINK_WriteReg(R5, 0x00000000)
T449C 000:469.081 - 0.009ms returns 0
T449C 000:469.089 JLINK_WriteReg(R6, 0x00000000)
T449C 000:469.095 - 0.009ms returns 0
T449C 000:469.103 JLINK_WriteReg(R7, 0x00000000)
T449C 000:469.109 - 0.009ms returns 0
T449C 000:469.116 JLINK_WriteReg(R8, 0x00000000)
T449C 000:469.123 - 0.009ms returns 0
T449C 000:469.130 JLINK_WriteReg(R9, 0x20000214)
T449C 000:469.136 - 0.009ms returns 0
T449C 000:469.144 JLINK_WriteReg(R10, 0x00000000)
T449C 000:469.150 - 0.009ms returns 0
T449C 000:469.158 JLINK_WriteReg(R11, 0x00000000)
T449C 000:469.164 - 0.009ms returns 0
T449C 000:469.171 JLINK_WriteReg(R12, 0x00000000)
T449C 000:469.178 - 0.009ms returns 0
T449C 000:469.185 JLINK_WriteReg(R13 (SP), 0x20001000)
T449C 000:469.192 - 0.010ms returns 0
T449C 000:469.199 JLINK_WriteReg(R14, 0x20000001)
T449C 000:469.206 - 0.009ms returns 0
T449C 000:469.213 JLINK_WriteReg(R15 (PC), 0x200000FA)
T449C 000:469.220 - 0.009ms returns 0
T449C 000:469.227 JLINK_WriteReg(XPSR, 0x01000000)
T449C 000:469.233 - 0.009ms returns 0
T449C 000:469.241 JLINK_WriteReg(MSP, 0x20001000)
T449C 000:469.247 - 0.009ms returns 0
T449C 000:469.255 JLINK_WriteReg(PSP, 0x20001000)
T449C 000:469.261 - 0.009ms returns 0
T449C 000:469.268 JLINK_WriteReg(CFBP, 0x00000000)
T449C 000:469.275 - 0.009ms returns 0
T449C 000:469.282 JLINK_SetBPEx(Addr = 0x20000000, Type = 0xFFFFFFF2)
T449C 000:469.294 - 0.015ms returns 0x00000004
T449C 000:469.302 JLINK_Go()
T449C 000:469.314   CPU_ReadMem(4 bytes @ 0xE0001000)
T449C 000:472.028 - 2.733ms
T449C 000:472.055 JLINK_IsHalted()
T449C 000:474.285   CPU_ReadMem(2 bytes @ 0x20000000)
T449C 000:474.641 - 2.593ms returns TRUE
T449C 000:474.667 JLINK_ReadReg(R15 (PC))
T449C 000:474.676 - 0.012ms returns 0x20000000
T449C 000:474.684 JLINK_ClrBPEx(BPHandle = 0x00000004)
T449C 000:474.691 - 0.009ms returns 0x00
T449C 000:474.698 JLINK_ReadReg(R0)
T449C 000:474.705 - 0.009ms returns 0x00000001
T449C 000:474.713 JLINK_HasError()
T449C 000:474.721 JLINK_WriteReg(R0, 0x08000100)
T449C 000:474.727 - 0.009ms returns 0
T449C 000:474.735 JLINK_WriteReg(R1, 0x00000100)
T449C 000:474.741 - 0.009ms returns 0
T449C 000:474.749 JLINK_WriteReg(R2, 0x00000000)
T449C 000:474.755 - 0.009ms returns 0
T449C 000:474.762 JLINK_WriteReg(R3, 0x00000000)
T449C 000:474.769 - 0.009ms returns 0
T449C 000:474.776 JLINK_WriteReg(R4, 0x00000000)
T449C 000:474.783 - 0.009ms returns 0
T449C 000:474.790 JLINK_WriteReg(R5, 0x00000000)
T449C 000:474.796 - 0.009ms returns 0
T449C 000:474.804 JLINK_WriteReg(R6, 0x00000000)
T449C 000:474.810 - 0.009ms returns 0
T449C 000:474.817 JLINK_WriteReg(R7, 0x00000000)
T449C 000:474.824 - 0.009ms returns 0
T449C 000:474.831 JLINK_WriteReg(R8, 0x00000000)
T449C 000:474.837 - 0.009ms returns 0
T449C 000:474.845 JLINK_WriteReg(R9, 0x20000214)
T449C 000:474.851 - 0.009ms returns 0
T449C 000:474.858 JLINK_WriteReg(R10, 0x00000000)
T449C 000:474.865 - 0.009ms returns 0
T449C 000:474.872 JLINK_WriteReg(R11, 0x00000000)
T449C 000:474.878 - 0.009ms returns 0
T449C 000:474.886 JLINK_WriteReg(R12, 0x00000000)
T449C 000:474.892 - 0.009ms returns 0
T449C 000:474.899 JLINK_WriteReg(R13 (SP), 0x20001000)
T449C 000:474.906 - 0.009ms returns 0
T449C 000:474.913 JLINK_WriteReg(R14, 0x20000001)
T449C 000:474.920 - 0.009ms returns 0
T449C 000:474.927 JLINK_WriteReg(R15 (PC), 0x200000A8)
T449C 000:474.933 - 0.009ms returns 0
T449C 000:474.941 JLINK_WriteReg(XPSR, 0x01000000)
T449C 000:474.947 - 0.009ms returns 0
T449C 000:474.955 JLINK_WriteReg(MSP, 0x20001000)
T449C 000:474.961 - 0.009ms returns 0
T449C 000:474.968 JLINK_WriteReg(PSP, 0x20001000)
T449C 000:474.975 - 0.009ms returns 0
T449C 000:474.982 JLINK_WriteReg(CFBP, 0x00000000)
T449C 000:474.988 - 0.009ms returns 0
T449C 000:474.996 JLINK_SetBPEx(Addr = 0x20000000, Type = 0xFFFFFFF2)
T449C 000:475.003 - 0.010ms returns 0x00000005
T449C 000:475.010 JLINK_Go()
T449C 000:475.021   CPU_ReadMem(4 bytes @ 0xE0001000)
T449C 000:477.556 - 2.555ms
T449C 000:477.589 JLINK_IsHalted()
T449C 000:477.902 - 0.321ms returns FALSE
T449C 000:477.934 JLINK_HasError()
T449C 000:479.437 JLINK_IsHalted()
T449C 000:479.917 - 0.493ms returns FALSE
T449C 000:479.988 JLINK_HasError()
T449C 000:483.493 JLINK_IsHalted()
T449C 000:485.932   CPU_ReadMem(2 bytes @ 0x20000000)
T449C 000:486.284 - 2.799ms returns TRUE
T449C 000:486.316 JLINK_ReadReg(R15 (PC))
T449C 000:486.327 - 0.013ms returns 0x20000000
T449C 000:486.335 JLINK_ClrBPEx(BPHandle = 0x00000005)
T449C 000:486.343 - 0.011ms returns 0x00
T449C 000:486.353 JLINK_ReadReg(R0)
T449C 000:486.359 - 0.009ms returns 0x00000000
T449C 000:486.827 JLINK_HasError()
T449C 000:486.839 JLINK_WriteReg(R0, 0x08000200)
T449C 000:486.847 - 0.011ms returns 0
T449C 000:486.855 JLINK_WriteReg(R1, 0x00000100)
T449C 000:486.862 - 0.009ms returns 0
T449C 000:486.869 JLINK_WriteReg(R2, 0x00000000)
T449C 000:486.876 - 0.009ms returns 0
T449C 000:486.883 JLINK_WriteReg(R3, 0x00000000)
T449C 000:486.890 - 0.009ms returns 0
T449C 000:486.897 JLINK_WriteReg(R4, 0x00000000)
T449C 000:486.903 - 0.009ms returns 0
T449C 000:486.911 JLINK_WriteReg(R5, 0x00000000)
T449C 000:486.917 - 0.009ms returns 0
T449C 000:486.925 JLINK_WriteReg(R6, 0x00000000)
T449C 000:486.931 - 0.009ms returns 0
T449C 000:486.939 JLINK_WriteReg(R7, 0x00000000)
T449C 000:486.945 - 0.009ms returns 0
T449C 000:486.952 JLINK_WriteReg(R8, 0x00000000)
T449C 000:486.963 - 0.014ms returns 0
T449C 000:486.971 JLINK_WriteReg(R9, 0x20000214)
T449C 000:486.977 - 0.009ms returns 0
T449C 000:486.985 JLINK_WriteReg(R10, 0x00000000)
T449C 000:486.991 - 0.009ms returns 0
T449C 000:486.999 JLINK_WriteReg(R11, 0x00000000)
T449C 000:487.005 - 0.009ms returns 0
T449C 000:487.013 JLINK_WriteReg(R12, 0x00000000)
T449C 000:487.019 - 0.009ms returns 0
T449C 000:487.026 JLINK_WriteReg(R13 (SP), 0x20001000)
T449C 000:487.033 - 0.009ms returns 0
T449C 000:487.041 JLINK_WriteReg(R14, 0x20000001)
T449C 000:487.047 - 0.009ms returns 0
T449C 000:487.055 JLINK_WriteReg(R15 (PC), 0x200000FA)
T449C 000:487.061 - 0.009ms returns 0
T449C 000:487.069 JLINK_WriteReg(XPSR, 0x01000000)
T449C 000:487.075 - 0.009ms returns 0
T449C 000:487.083 JLINK_WriteReg(MSP, 0x20001000)
T449C 000:487.089 - 0.009ms returns 0
T449C 000:487.096 JLINK_WriteReg(PSP, 0x20001000)
T449C 000:487.103 - 0.009ms returns 0
T449C 000:487.110 JLINK_WriteReg(CFBP, 0x00000000)
T449C 000:487.116 - 0.009ms returns 0
T449C 000:487.124 JLINK_SetBPEx(Addr = 0x20000000, Type = 0xFFFFFFF2)
T449C 000:487.132 - 0.010ms returns 0x00000006
T449C 000:487.139 JLINK_Go()
T449C 000:487.152   CPU_ReadMem(4 bytes @ 0xE0001000)
T449C 000:489.617 - 2.501ms
T449C 000:489.684 JLINK_IsHalted()
T449C 000:491.998   CPU_ReadMem(2 bytes @ 0x20000000)
T449C 000:492.322 - 2.645ms returns TRUE
T449C 000:492.348 JLINK_ReadReg(R15 (PC))
T449C 000:492.357 - 0.012ms returns 0x20000000
T449C 000:492.366 JLINK_ClrBPEx(BPHandle = 0x00000006)
T449C 000:492.372 - 0.009ms returns 0x00
T449C 000:492.380 JLINK_ReadReg(R0)
T449C 000:492.391 - 0.013ms returns 0x00000001
T449C 000:492.399 JLINK_HasError()
T449C 000:492.407 JLINK_WriteReg(R0, 0x08000200)
T449C 000:492.414 - 0.010ms returns 0
T449C 000:492.422 JLINK_WriteReg(R1, 0x00000100)
T449C 000:492.428 - 0.009ms returns 0
T449C 000:492.436 JLINK_WriteReg(R2, 0x00000000)
T449C 000:492.442 - 0.009ms returns 0
T449C 000:492.449 JLINK_WriteReg(R3, 0x00000000)
T449C 000:492.456 - 0.009ms returns 0
T449C 000:492.463 JLINK_WriteReg(R4, 0x00000000)
T449C 000:492.469 - 0.009ms returns 0
T449C 000:492.477 JLINK_WriteReg(R5, 0x00000000)
T449C 000:492.483 - 0.009ms returns 0
T449C 000:492.490 JLINK_WriteReg(R6, 0x00000000)
T449C 000:492.496 - 0.009ms returns 0
T449C 000:492.504 JLINK_WriteReg(R7, 0x00000000)
T449C 000:492.510 - 0.009ms returns 0
T449C 000:492.518 JLINK_WriteReg(R8, 0x00000000)
T449C 000:492.524 - 0.009ms returns 0
T449C 000:492.531 JLINK_WriteReg(R9, 0x20000214)
T449C 000:492.537 - 0.009ms returns 0
T449C 000:492.545 JLINK_WriteReg(R10, 0x00000000)
T449C 000:492.551 - 0.009ms returns 0
T449C 000:492.558 JLINK_WriteReg(R11, 0x00000000)
T449C 000:492.565 - 0.009ms returns 0
T449C 000:492.572 JLINK_WriteReg(R12, 0x00000000)
T449C 000:492.578 - 0.009ms returns 0
T449C 000:492.586 JLINK_WriteReg(R13 (SP), 0x20001000)
T449C 000:492.592 - 0.009ms returns 0
T449C 000:492.600 JLINK_WriteReg(R14, 0x20000001)
T449C 000:492.606 - 0.009ms returns 0
T449C 000:492.614 JLINK_WriteReg(R15 (PC), 0x200000A8)
T449C 000:492.620 - 0.009ms returns 0
T449C 000:492.627 JLINK_WriteReg(XPSR, 0x01000000)
T449C 000:492.634 - 0.009ms returns 0
T449C 000:492.641 JLINK_WriteReg(MSP, 0x20001000)
T449C 000:492.647 - 0.009ms returns 0
T449C 000:492.655 JLINK_WriteReg(PSP, 0x20001000)
T449C 000:492.661 - 0.009ms returns 0
T449C 000:492.668 JLINK_WriteReg(CFBP, 0x00000000)
T449C 000:492.675 - 0.009ms returns 0
T449C 000:492.682 JLINK_SetBPEx(Addr = 0x20000000, Type = 0xFFFFFFF2)
T449C 000:492.689 - 0.010ms returns 0x00000007
T449C 000:492.697 JLINK_Go()
T449C 000:492.708   CPU_ReadMem(4 bytes @ 0xE0001000)
T449C 000:495.091 - 2.400ms
T449C 000:495.116 JLINK_IsHalted()
T449C 000:495.404 - 0.294ms returns FALSE
T449C 000:495.429 JLINK_HasError()
T449C 000:498.405 JLINK_IsHalted()
T449C 000:516.207   CPU_ReadMem(2 bytes @ 0x20000000)
T449C 000:516.611 - 18.213ms returns TRUE
T449C 000:516.644 JLINK_ReadReg(R15 (PC))
T449C 000:516.654 - 0.017ms returns 0x20000000
T449C 000:516.668 JLINK_ClrBPEx(BPHandle = 0x00000007)
T449C 000:516.675 - 0.010ms returns 0x00
T449C 000:516.688 JLINK_ReadReg(R0)
T449C 000:516.694 - 0.009ms returns 0x00000000
T449C 000:517.117 JLINK_HasError()
T449C 000:517.129 JLINK_WriteReg(R0, 0x08000300)
T449C 000:517.137 - 0.011ms returns 0
T449C 000:517.145 JLINK_WriteReg(R1, 0x00000100)
T449C 000:517.152 - 0.009ms returns 0
T449C 000:517.159 JLINK_WriteReg(R2, 0x00000000)
T449C 000:517.166 - 0.009ms returns 0
T449C 000:517.173 JLINK_WriteReg(R3, 0x00000000)
T449C 000:517.180 - 0.009ms returns 0
T449C 000:517.187 JLINK_WriteReg(R4, 0x00000000)
T449C 000:517.193 - 0.009ms returns 0
T449C 000:517.201 JLINK_WriteReg(R5, 0x00000000)
T449C 000:517.207 - 0.009ms returns 0
T449C 000:517.215 JLINK_WriteReg(R6, 0x00000000)
T449C 000:517.221 - 0.009ms returns 0
T449C 000:517.228 JLINK_WriteReg(R7, 0x00000000)
T449C 000:517.235 - 0.009ms returns 0
T449C 000:517.242 JLINK_WriteReg(R8, 0x00000000)
T449C 000:517.249 - 0.009ms returns 0
T449C 000:517.256 JLINK_WriteReg(R9, 0x20000214)
T449C 000:517.262 - 0.009ms returns 0
T449C 000:517.270 JLINK_WriteReg(R10, 0x00000000)
T449C 000:517.276 - 0.009ms returns 0
T449C 000:517.284 JLINK_WriteReg(R11, 0x00000000)
T449C 000:517.290 - 0.009ms returns 0
T449C 000:517.297 JLINK_WriteReg(R12, 0x00000000)
T449C 000:517.304 - 0.009ms returns 0
T449C 000:517.311 JLINK_WriteReg(R13 (SP), 0x20001000)
T449C 000:517.318 - 0.009ms returns 0
T449C 000:517.325 JLINK_WriteReg(R14, 0x20000001)
T449C 000:517.332 - 0.009ms returns 0
T449C 000:517.339 JLINK_WriteReg(R15 (PC), 0x200000FA)
T449C 000:517.347 - 0.011ms returns 0
T449C 000:517.355 JLINK_WriteReg(XPSR, 0x01000000)
T449C 000:517.371 - 0.043ms returns 0
T449C 000:517.404 JLINK_WriteReg(MSP, 0x20001000)
T449C 000:517.410 - 0.009ms returns 0
T449C 000:517.418 JLINK_WriteReg(PSP, 0x20001000)
T449C 000:517.425 - 0.009ms returns 0
T449C 000:517.432 JLINK_WriteReg(CFBP, 0x00000000)
T449C 000:517.439 - 0.009ms returns 0
T449C 000:517.447 JLINK_SetBPEx(Addr = 0x20000000, Type = 0xFFFFFFF2)
T449C 000:517.454 - 0.010ms returns 0x00000008
T449C 000:517.462 JLINK_Go()
T449C 000:517.492   CPU_ReadMem(4 bytes @ 0xE0001000)
T449C 000:520.098 - 2.644ms
T449C 000:520.126 JLINK_IsHalted()
T449C 000:522.300   CPU_ReadMem(2 bytes @ 0x20000000)
T449C 000:522.659 - 2.539ms returns TRUE
T449C 000:522.685 JLINK_ReadReg(R15 (PC))
T449C 000:522.694 - 0.012ms returns 0x20000000
T449C 000:522.703 JLINK_ClrBPEx(BPHandle = 0x00000008)
T449C 000:522.710 - 0.009ms returns 0x00
T449C 000:522.717 JLINK_ReadReg(R0)
T449C 000:522.724 - 0.009ms returns 0x00000001
T449C 000:522.732 JLINK_HasError()
T449C 000:522.739 JLINK_WriteReg(R0, 0x08000300)
T449C 000:522.746 - 0.009ms returns 0
T449C 000:522.754 JLINK_WriteReg(R1, 0x00000100)
T449C 000:522.760 - 0.009ms returns 0
T449C 000:522.768 JLINK_WriteReg(R2, 0x00000000)
T449C 000:522.774 - 0.009ms returns 0
T449C 000:522.782 JLINK_WriteReg(R3, 0x00000000)
T449C 000:522.788 - 0.009ms returns 0
T449C 000:522.795 JLINK_WriteReg(R4, 0x00000000)
T449C 000:522.802 - 0.009ms returns 0
T449C 000:522.809 JLINK_WriteReg(R5, 0x00000000)
T449C 000:522.815 - 0.009ms returns 0
T449C 000:522.823 JLINK_WriteReg(R6, 0x00000000)
T449C 000:522.829 - 0.009ms returns 0
T449C 000:522.837 JLINK_WriteReg(R7, 0x00000000)
T449C 000:522.843 - 0.009ms returns 0
T449C 000:522.850 JLINK_WriteReg(R8, 0x00000000)
T449C 000:522.857 - 0.009ms returns 0
T449C 000:522.864 JLINK_WriteReg(R9, 0x20000214)
T449C 000:522.870 - 0.009ms returns 0
T449C 000:522.878 JLINK_WriteReg(R10, 0x00000000)
T449C 000:522.884 - 0.009ms returns 0
T449C 000:522.891 JLINK_WriteReg(R11, 0x00000000)
T449C 000:522.898 - 0.009ms returns 0
T449C 000:522.905 JLINK_WriteReg(R12, 0x00000000)
T449C 000:522.911 - 0.009ms returns 0
T449C 000:522.919 JLINK_WriteReg(R13 (SP), 0x20001000)
T449C 000:522.925 - 0.009ms returns 0
T449C 000:522.933 JLINK_WriteReg(R14, 0x20000001)
T449C 000:522.939 - 0.009ms returns 0
T449C 000:522.946 JLINK_WriteReg(R15 (PC), 0x200000A8)
T449C 000:522.957 - 0.013ms returns 0
T449C 000:522.964 JLINK_WriteReg(XPSR, 0x01000000)
T449C 000:522.971 - 0.009ms returns 0
T449C 000:522.978 JLINK_WriteReg(MSP, 0x20001000)
T449C 000:522.984 - 0.009ms returns 0
T449C 000:522.992 JLINK_WriteReg(PSP, 0x20001000)
T449C 000:522.998 - 0.009ms returns 0
T449C 000:523.006 JLINK_WriteReg(CFBP, 0x00000000)
T449C 000:523.012 - 0.009ms returns 0
T449C 000:523.019 JLINK_SetBPEx(Addr = 0x20000000, Type = 0xFFFFFFF2)
T449C 000:523.026 - 0.010ms returns 0x00000009
T449C 000:523.034 JLINK_Go()
T449C 000:523.045   CPU_ReadMem(4 bytes @ 0xE0001000)
T449C 000:525.528 - 2.502ms
T449C 000:525.557 JLINK_IsHalted()
T449C 000:525.892 - 0.342ms returns FALSE
T449C 000:525.919 JLINK_HasError()
T449C 000:530.303 JLINK_IsHalted()
T449C 000:532.746   CPU_ReadMem(2 bytes @ 0x20000000)
T449C 000:533.146 - 2.850ms returns TRUE
T449C 000:533.176 JLINK_ReadReg(R15 (PC))
T449C 000:533.187 - 0.014ms returns 0x20000000
T449C 000:533.196 JLINK_ClrBPEx(BPHandle = 0x00000009)
T449C 000:533.203 - 0.010ms returns 0x00
T449C 000:533.210 JLINK_ReadReg(R0)
T449C 000:533.217 - 0.009ms returns 0x00000000
T449C 000:534.269 JLINK_HasError()
T449C 000:534.289 JLINK_WriteReg(R0, 0x08000400)
T449C 000:534.299 - 0.038ms returns 0
T449C 000:534.333 JLINK_WriteReg(R1, 0x00000100)
T449C 000:534.340 - 0.010ms returns 0
T449C 000:534.348 JLINK_WriteReg(R2, 0x00000000)
T449C 000:534.354 - 0.009ms returns 0
T449C 000:534.378 JLINK_WriteReg(R3, 0x00000000)
T449C 000:534.384 - 0.025ms returns 0
T449C 000:534.408 JLINK_WriteReg(R4, 0x00000000)
T449C 000:534.430 - 0.025ms returns 0
T449C 000:534.454 JLINK_WriteReg(R5, 0x00000000)
T449C 000:534.460 - 0.025ms returns 0
T449C 000:534.483 JLINK_WriteReg(R6, 0x00000000)
T449C 000:534.490 - 0.009ms returns 0
T449C 000:534.497 JLINK_WriteReg(R7, 0x00000000)
T449C 000:534.519 - 0.025ms returns 0
T449C 000:534.543 JLINK_WriteReg(R8, 0x00000000)
T449C 000:534.549 - 0.009ms returns 0
T449C 000:534.557 JLINK_WriteReg(R9, 0x20000214)
T449C 000:534.563 - 0.009ms returns 0
T449C 000:534.570 JLINK_WriteReg(R10, 0x00000000)
T449C 000:534.577 - 0.009ms returns 0
T449C 000:534.584 JLINK_WriteReg(R11, 0x00000000)
T449C 000:534.591 - 0.009ms returns 0
T449C 000:534.598 JLINK_WriteReg(R12, 0x00000000)
T449C 000:534.604 - 0.009ms returns 0
T449C 000:534.612 JLINK_WriteReg(R13 (SP), 0x20001000)
T449C 000:534.619 - 0.009ms returns 0
T449C 000:534.626 JLINK_WriteReg(R14, 0x20000001)
T449C 000:534.650 - 0.026ms returns 0
T449C 000:534.657 JLINK_WriteReg(R15 (PC), 0x200000FA)
T449C 000:534.664 - 0.009ms returns 0
T449C 000:534.671 JLINK_WriteReg(XPSR, 0x01000000)
T449C 000:534.678 - 0.009ms returns 0
T449C 000:534.686 JLINK_WriteReg(MSP, 0x20001000)
T449C 000:534.692 - 0.009ms returns 0
T449C 000:534.700 JLINK_WriteReg(PSP, 0x20001000)
T449C 000:534.707 - 0.009ms returns 0
T449C 000:534.714 JLINK_WriteReg(CFBP, 0x00000000)
T449C 000:534.721 - 0.009ms returns 0
T449C 000:534.745 JLINK_SetBPEx(Addr = 0x20000000, Type = 0xFFFFFFF2)
T449C 000:534.753 - 0.011ms returns 0x0000000A
T449C 000:534.777 JLINK_Go()
T449C 000:534.791   CPU_ReadMem(4 bytes @ 0xE0001000)
T449C 000:537.165 - 2.396ms
T449C 000:537.194 JLINK_IsHalted()
T449C 000:539.314   CPU_ReadMem(2 bytes @ 0x20000000)
T449C 000:539.590 - 2.402ms returns TRUE
T449C 000:539.616 JLINK_ReadReg(R15 (PC))
T449C 000:539.626 - 0.012ms returns 0x20000000
T449C 000:539.634 JLINK_ClrBPEx(BPHandle = 0x0000000A)
T449C 000:539.640 - 0.009ms returns 0x00
T449C 000:539.648 JLINK_ReadReg(R0)
T449C 000:539.655 - 0.009ms returns 0x00000001
T449C 000:539.663 JLINK_HasError()
T449C 000:539.671 JLINK_WriteReg(R0, 0x08000400)
T449C 000:539.677 - 0.009ms returns 0
T449C 000:539.685 JLINK_WriteReg(R1, 0x00000100)
T449C 000:539.691 - 0.009ms returns 0
T449C 000:539.699 JLINK_WriteReg(R2, 0x00000000)
T449C 000:539.705 - 0.009ms returns 0
T449C 000:539.713 JLINK_WriteReg(R3, 0x00000000)
T449C 000:539.719 - 0.009ms returns 0
T449C 000:539.726 JLINK_WriteReg(R4, 0x00000000)
T449C 000:539.736 - 0.014ms returns 0
T449C 000:539.745 JLINK_WriteReg(R5, 0x00000000)
T449C 000:539.752 - 0.009ms returns 0
T449C 000:539.759 JLINK_WriteReg(R6, 0x00000000)
T449C 000:539.766 - 0.009ms returns 0
T449C 000:539.773 JLINK_WriteReg(R7, 0x00000000)
T449C 000:539.779 - 0.009ms returns 0
T449C 000:539.787 JLINK_WriteReg(R8, 0x00000000)
T449C 000:539.793 - 0.009ms returns 0
T449C 000:539.800 JLINK_WriteReg(R9, 0x20000214)
T449C 000:539.807 - 0.009ms returns 0
T449C 000:539.814 JLINK_WriteReg(R10, 0x00000000)
T449C 000:539.820 - 0.009ms returns 0
T449C 000:539.828 JLINK_WriteReg(R11, 0x00000000)
T449C 000:539.834 - 0.009ms returns 0
T449C 000:539.841 JLINK_WriteReg(R12, 0x00000000)
T449C 000:539.848 - 0.009ms returns 0
T449C 000:539.855 JLINK_WriteReg(R13 (SP), 0x20001000)
T449C 000:539.862 - 0.009ms returns 0
T449C 000:539.869 JLINK_WriteReg(R14, 0x20000001)
T449C 000:539.875 - 0.009ms returns 0
T449C 000:539.883 JLINK_WriteReg(R15 (PC), 0x200000A8)
T449C 000:539.889 - 0.009ms returns 0
T449C 000:539.897 JLINK_WriteReg(XPSR, 0x01000000)
T449C 000:539.903 - 0.009ms returns 0
T449C 000:539.910 JLINK_WriteReg(MSP, 0x20001000)
T449C 000:539.917 - 0.009ms returns 0
T449C 000:539.924 JLINK_WriteReg(PSP, 0x20001000)
T449C 000:539.930 - 0.009ms returns 0
T449C 000:539.938 JLINK_WriteReg(CFBP, 0x00000000)
T449C 000:539.944 - 0.009ms returns 0
T449C 000:539.952 JLINK_SetBPEx(Addr = 0x20000000, Type = 0xFFFFFFF2)
T449C 000:539.959 - 0.010ms returns 0x0000000B
T449C 000:539.966 JLINK_Go()
T449C 000:539.977   CPU_ReadMem(4 bytes @ 0xE0001000)
T449C 000:550.774 - 10.823ms
T449C 000:550.815 JLINK_IsHalted()
T449C 000:551.201 - 0.393ms returns FALSE
T449C 000:551.236 JLINK_HasError()
T449C 000:554.227 JLINK_IsHalted()
T449C 000:556.688   CPU_ReadMem(2 bytes @ 0x20000000)
T449C 000:557.030 - 2.810ms returns TRUE
T449C 000:557.056 JLINK_ReadReg(R15 (PC))
T449C 000:557.066 - 0.013ms returns 0x20000000
T449C 000:557.075 JLINK_ClrBPEx(BPHandle = 0x0000000B)
T449C 000:557.082 - 0.009ms returns 0x00
T449C 000:557.089 JLINK_ReadReg(R0)
T449C 000:557.096 - 0.009ms returns 0x00000000
T449C 000:557.595 JLINK_HasError()
T449C 000:557.607 JLINK_WriteReg(R0, 0x08000500)
T449C 000:557.616 - 0.011ms returns 0
T449C 000:557.624 JLINK_WriteReg(R1, 0x00000100)
T449C 000:557.630 - 0.009ms returns 0
T449C 000:557.638 JLINK_WriteReg(R2, 0x00000000)
T449C 000:557.644 - 0.009ms returns 0
T449C 000:557.652 JLINK_WriteReg(R3, 0x00000000)
T449C 000:557.658 - 0.009ms returns 0
T449C 000:557.665 JLINK_WriteReg(R4, 0x00000000)
T449C 000:557.672 - 0.009ms returns 0
T449C 000:557.679 JLINK_WriteReg(R5, 0x00000000)
T449C 000:557.685 - 0.009ms returns 0
T449C 000:557.693 JLINK_WriteReg(R6, 0x00000000)
T449C 000:557.699 - 0.009ms returns 0
T449C 000:557.707 JLINK_WriteReg(R7, 0x00000000)
T449C 000:557.713 - 0.009ms returns 0
T449C 000:557.720 JLINK_WriteReg(R8, 0x00000000)
T449C 000:557.727 - 0.009ms returns 0
T449C 000:557.734 JLINK_WriteReg(R9, 0x20000214)
T449C 000:557.741 - 0.009ms returns 0
T449C 000:557.748 JLINK_WriteReg(R10, 0x00000000)
T449C 000:557.754 - 0.009ms returns 0
T449C 000:557.762 JLINK_WriteReg(R11, 0x00000000)
T449C 000:557.768 - 0.009ms returns 0
T449C 000:557.776 JLINK_WriteReg(R12, 0x00000000)
T449C 000:557.782 - 0.009ms returns 0
T449C 000:557.789 JLINK_WriteReg(R13 (SP), 0x20001000)
T449C 000:557.796 - 0.009ms returns 0
T449C 000:557.804 JLINK_WriteReg(R14, 0x20000001)
T449C 000:557.810 - 0.009ms returns 0
T449C 000:557.817 JLINK_WriteReg(R15 (PC), 0x200000FA)
T449C 000:557.824 - 0.009ms returns 0
T449C 000:557.831 JLINK_WriteReg(XPSR, 0x01000000)
T449C 000:557.838 - 0.009ms returns 0
T449C 000:557.845 JLINK_WriteReg(MSP, 0x20001000)
T449C 000:557.851 - 0.009ms returns 0
T449C 000:557.859 JLINK_WriteReg(PSP, 0x20001000)
T449C 000:557.865 - 0.009ms returns 0
T449C 000:557.873 JLINK_WriteReg(CFBP, 0x00000000)
T449C 000:557.879 - 0.009ms returns 0
T449C 000:557.886 JLINK_SetBPEx(Addr = 0x20000000, Type = 0xFFFFFFF2)
T449C 000:557.894 - 0.013ms returns 0x0000000C
T449C 000:557.906 JLINK_Go()
T449C 000:557.919   CPU_ReadMem(4 bytes @ 0xE0001000)
T449C 000:560.288 - 2.387ms
T449C 000:560.313 JLINK_IsHalted()
T449C 000:562.395   CPU_ReadMem(2 bytes @ 0x20000000)
T449C 000:562.717 - 2.413ms returns TRUE
T449C 000:562.751 JLINK_ReadReg(R15 (PC))
T449C 000:562.762 - 0.014ms returns 0x20000000
T449C 000:562.771 JLINK_ClrBPEx(BPHandle = 0x0000000C)
T449C 000:562.778 - 0.010ms returns 0x00
T449C 000:562.786 JLINK_ReadReg(R0)
T449C 000:562.793 - 0.010ms returns 0x00000001
T449C 000:562.802 JLINK_HasError()
T449C 000:562.810 JLINK_WriteReg(R0, 0x08000500)
T449C 000:562.818 - 0.010ms returns 0
T449C 000:562.826 JLINK_WriteReg(R1, 0x00000100)
T449C 000:562.833 - 0.010ms returns 0
T449C 000:562.841 JLINK_WriteReg(R2, 0x00000000)
T449C 000:562.863 - 0.025ms returns 0
T449C 000:562.871 JLINK_WriteReg(R3, 0x00000000)
T449C 000:562.877 - 0.009ms returns 0
T449C 000:562.884 JLINK_WriteReg(R4, 0x00000000)
T449C 000:562.908 - 0.026ms returns 0
T449C 000:562.915 JLINK_WriteReg(R5, 0x00000000)
T449C 000:562.922 - 0.009ms returns 0
T449C 000:562.930 JLINK_WriteReg(R6, 0x00000000)
T449C 000:562.936 - 0.009ms returns 0
T449C 000:562.962 JLINK_WriteReg(R7, 0x00000000)
T449C 000:562.969 - 0.009ms returns 0
T449C 000:562.976 JLINK_WriteReg(R8, 0x00000000)
T449C 000:562.983 - 0.009ms returns 0
T449C 000:562.990 JLINK_WriteReg(R9, 0x20000214)
T449C 000:562.996 - 0.009ms returns 0
T449C 000:563.004 JLINK_WriteReg(R10, 0x00000000)
T449C 000:563.010 - 0.009ms returns 0
T449C 000:563.018 JLINK_WriteReg(R11, 0x00000000)
T449C 000:563.024 - 0.009ms returns 0
T449C 000:563.031 JLINK_WriteReg(R12, 0x00000000)
T449C 000:563.038 - 0.009ms returns 0
T449C 000:563.045 JLINK_WriteReg(R13 (SP), 0x20001000)
T449C 000:563.052 - 0.009ms returns 0
T449C 000:563.059 JLINK_WriteReg(R14, 0x20000001)
T449C 000:563.066 - 0.009ms returns 0
T449C 000:563.073 JLINK_WriteReg(R15 (PC), 0x200000A8)
T449C 000:563.080 - 0.009ms returns 0
T449C 000:563.087 JLINK_WriteReg(XPSR, 0x01000000)
T449C 000:563.094 - 0.009ms returns 0
T449C 000:563.101 JLINK_WriteReg(MSP, 0x20001000)
T449C 000:563.107 - 0.009ms returns 0
T449C 000:563.115 JLINK_WriteReg(PSP, 0x20001000)
T449C 000:563.121 - 0.009ms returns 0
T449C 000:563.129 JLINK_WriteReg(CFBP, 0x00000000)
T449C 000:563.135 - 0.009ms returns 0
T449C 000:563.143 JLINK_SetBPEx(Addr = 0x20000000, Type = 0xFFFFFFF2)
T449C 000:563.150 - 0.010ms returns 0x0000000D
T449C 000:563.157 JLINK_Go()
T449C 000:563.169   CPU_ReadMem(4 bytes @ 0xE0001000)
T449C 000:565.632 - 2.482ms
T449C 000:565.663 JLINK_IsHalted()
T449C 000:565.947 - 0.291ms returns FALSE
T449C 000:565.978 JLINK_HasError()
T449C 000:576.260 JLINK_IsHalted()
T449C 000:591.817   CPU_ReadMem(2 bytes @ 0x20000000)
T449C 000:592.208 - 15.955ms returns TRUE
T449C 000:592.241 JLINK_ReadReg(R15 (PC))
T449C 000:592.252 - 0.014ms returns 0x20000000
T449C 000:592.260 JLINK_ClrBPEx(BPHandle = 0x0000000D)
T449C 000:592.267 - 0.010ms returns 0x00
T449C 000:592.275 JLINK_ReadReg(R0)
T449C 000:592.282 - 0.009ms returns 0x00000000
T449C 000:592.713 JLINK_HasError()
T449C 000:592.725 JLINK_WriteReg(R0, 0x08000600)
T449C 000:592.734 - 0.011ms returns 0
T449C 000:592.742 JLINK_WriteReg(R1, 0x00000100)
T449C 000:592.748 - 0.009ms returns 0
T449C 000:592.756 JLINK_WriteReg(R2, 0x00000000)
T449C 000:592.762 - 0.009ms returns 0
T449C 000:592.770 JLINK_WriteReg(R3, 0x00000000)
T449C 000:592.776 - 0.009ms returns 0
T449C 000:592.784 JLINK_WriteReg(R4, 0x00000000)
T449C 000:592.790 - 0.009ms returns 0
T449C 000:592.797 JLINK_WriteReg(R5, 0x00000000)
T449C 000:592.804 - 0.009ms returns 0
T449C 000:592.811 JLINK_WriteReg(R6, 0x00000000)
T449C 000:592.818 - 0.009ms returns 0
T449C 000:592.825 JLINK_WriteReg(R7, 0x00000000)
T449C 000:592.831 - 0.009ms returns 0
T449C 000:592.839 JLINK_WriteReg(R8, 0x00000000)
T449C 000:592.845 - 0.009ms returns 0
T449C 000:592.853 JLINK_WriteReg(R9, 0x20000214)
T449C 000:592.859 - 0.009ms returns 0
T449C 000:592.866 JLINK_WriteReg(R10, 0x00000000)
T449C 000:592.875 - 0.014ms returns 0
T449C 000:592.885 JLINK_WriteReg(R11, 0x00000000)
T449C 000:592.892 - 0.009ms returns 0
T449C 000:592.899 JLINK_WriteReg(R12, 0x00000000)
T449C 000:592.905 - 0.009ms returns 0
T449C 000:592.913 JLINK_WriteReg(R13 (SP), 0x20001000)
T449C 000:592.920 - 0.009ms returns 0
T449C 000:592.927 JLINK_WriteReg(R14, 0x20000001)
T449C 000:592.933 - 0.009ms returns 0
T449C 000:592.941 JLINK_WriteReg(R15 (PC), 0x200000FA)
T449C 000:592.947 - 0.009ms returns 0
T449C 000:592.955 JLINK_WriteReg(XPSR, 0x01000000)
T449C 000:592.961 - 0.009ms returns 0
T449C 000:592.969 JLINK_WriteReg(MSP, 0x20001000)
T449C 000:592.975 - 0.009ms returns 0
T449C 000:592.983 JLINK_WriteReg(PSP, 0x20001000)
T449C 000:592.989 - 0.009ms returns 0
T449C 000:592.996 JLINK_WriteReg(CFBP, 0x00000000)
T449C 000:593.003 - 0.009ms returns 0
T449C 000:593.010 JLINK_SetBPEx(Addr = 0x20000000, Type = 0xFFFFFFF2)
T449C 000:593.018 - 0.010ms returns 0x0000000E
T449C 000:593.025 JLINK_Go()
T449C 000:593.038   CPU_ReadMem(4 bytes @ 0xE0001000)
T449C 000:595.742 - 2.724ms
T449C 000:595.772 JLINK_IsHalted()
T449C 000:598.055   CPU_ReadMem(2 bytes @ 0x20000000)
T449C 000:598.454 - 2.689ms returns TRUE
T449C 000:598.484 JLINK_ReadReg(R15 (PC))
T449C 000:598.493 - 0.013ms returns 0x20000000
T449C 000:598.502 JLINK_ClrBPEx(BPHandle = 0x0000000E)
T449C 000:598.509 - 0.010ms returns 0x00
T449C 000:598.517 JLINK_ReadReg(R0)
T449C 000:598.523 - 0.009ms returns 0x00000001
T449C 000:598.531 JLINK_HasError()
T449C 000:598.539 JLINK_WriteReg(R0, 0x08000600)
T449C 000:598.546 - 0.010ms returns 0
T449C 000:598.554 JLINK_WriteReg(R1, 0x00000100)
T449C 000:598.560 - 0.009ms returns 0
T449C 000:598.567 JLINK_WriteReg(R2, 0x00000000)
T449C 000:598.574 - 0.009ms returns 0
T449C 000:598.581 JLINK_WriteReg(R3, 0x00000000)
T449C 000:598.587 - 0.009ms returns 0
T449C 000:598.595 JLINK_WriteReg(R4, 0x00000000)
T449C 000:598.601 - 0.009ms returns 0
T449C 000:598.609 JLINK_WriteReg(R5, 0x00000000)
T449C 000:598.615 - 0.009ms returns 0
T449C 000:598.622 JLINK_WriteReg(R6, 0x00000000)
T449C 000:598.629 - 0.009ms returns 0
T449C 000:598.636 JLINK_WriteReg(R7, 0x00000000)
T449C 000:598.642 - 0.009ms returns 0
T449C 000:598.650 JLINK_WriteReg(R8, 0x00000000)
T449C 000:598.656 - 0.009ms returns 0
T449C 000:598.663 JLINK_WriteReg(R9, 0x20000214)
T449C 000:598.670 - 0.009ms returns 0
T449C 000:598.677 JLINK_WriteReg(R10, 0x00000000)
T449C 000:598.684 - 0.009ms returns 0
T449C 000:598.691 JLINK_WriteReg(R11, 0x00000000)
T449C 000:598.697 - 0.009ms returns 0
T449C 000:598.705 JLINK_WriteReg(R12, 0x00000000)
T449C 000:598.711 - 0.009ms returns 0
T449C 000:598.718 JLINK_WriteReg(R13 (SP), 0x20001000)
T449C 000:598.725 - 0.009ms returns 0
T449C 000:598.732 JLINK_WriteReg(R14, 0x20000001)
T449C 000:598.739 - 0.009ms returns 0
T449C 000:598.746 JLINK_WriteReg(R15 (PC), 0x200000A8)
T449C 000:598.753 - 0.009ms returns 0
T449C 000:598.760 JLINK_WriteReg(XPSR, 0x01000000)
T449C 000:598.766 - 0.009ms returns 0
T449C 000:598.774 JLINK_WriteReg(MSP, 0x20001000)
T449C 000:598.780 - 0.009ms returns 0
T449C 000:598.787 JLINK_WriteReg(PSP, 0x20001000)
T449C 000:598.794 - 0.009ms returns 0
T449C 000:598.801 JLINK_WriteReg(CFBP, 0x00000000)
T449C 000:598.807 - 0.009ms returns 0
T449C 000:598.815 JLINK_SetBPEx(Addr = 0x20000000, Type = 0xFFFFFFF2)
T449C 000:598.822 - 0.010ms returns 0x0000000F
T449C 000:598.830 JLINK_Go()
T449C 000:598.841   CPU_ReadMem(4 bytes @ 0xE0001000)
T449C 000:601.443 - 2.621ms
T449C 000:601.473 JLINK_IsHalted()
T449C 000:601.955 - 0.490ms returns FALSE
T449C 000:601.987 JLINK_HasError()
T449C 000:607.199 JLINK_IsHalted()
T449C 000:609.648   CPU_ReadMem(2 bytes @ 0x20000000)
T449C 000:610.027 - 2.834ms returns TRUE
T449C 000:610.053 JLINK_ReadReg(R15 (PC))
T449C 000:610.063 - 0.017ms returns 0x20000000
T449C 000:610.076 JLINK_ClrBPEx(BPHandle = 0x0000000F)
T449C 000:610.083 - 0.010ms returns 0x00
T449C 000:610.091 JLINK_ReadReg(R0)
T449C 000:610.097 - 0.009ms returns 0x00000000
T449C 000:610.530 JLINK_HasError()
T449C 000:610.544 JLINK_WriteReg(R0, 0x08000700)
T449C 000:610.552 - 0.011ms returns 0
T449C 000:610.560 JLINK_WriteReg(R1, 0x00000100)
T449C 000:610.566 - 0.009ms returns 0
T449C 000:610.574 JLINK_WriteReg(R2, 0x00000000)
T449C 000:610.580 - 0.009ms returns 0
T449C 000:610.588 JLINK_WriteReg(R3, 0x00000000)
T449C 000:610.594 - 0.009ms returns 0
T449C 000:610.602 JLINK_WriteReg(R4, 0x00000000)
T449C 000:610.608 - 0.009ms returns 0
T449C 000:610.615 JLINK_WriteReg(R5, 0x00000000)
T449C 000:610.622 - 0.009ms returns 0
T449C 000:610.629 JLINK_WriteReg(R6, 0x00000000)
T449C 000:610.635 - 0.009ms returns 0
T449C 000:610.643 JLINK_WriteReg(R7, 0x00000000)
T449C 000:610.649 - 0.009ms returns 0
T449C 000:610.656 JLINK_WriteReg(R8, 0x00000000)
T449C 000:610.663 - 0.009ms returns 0
T449C 000:610.670 JLINK_WriteReg(R9, 0x20000214)
T449C 000:610.677 - 0.009ms returns 0
T449C 000:610.684 JLINK_WriteReg(R10, 0x00000000)
T449C 000:610.690 - 0.009ms returns 0
T449C 000:610.698 JLINK_WriteReg(R11, 0x00000000)
T449C 000:610.704 - 0.009ms returns 0
T449C 000:610.711 JLINK_WriteReg(R12, 0x00000000)
T449C 000:610.718 - 0.009ms returns 0
T449C 000:610.725 JLINK_WriteReg(R13 (SP), 0x20001000)
T449C 000:610.732 - 0.009ms returns 0
T449C 000:610.739 JLINK_WriteReg(R14, 0x20000001)
T449C 000:610.746 - 0.009ms returns 0
T449C 000:610.753 JLINK_WriteReg(R15 (PC), 0x200000FA)
T449C 000:610.759 - 0.009ms returns 0
T449C 000:610.767 JLINK_WriteReg(XPSR, 0x01000000)
T449C 000:610.773 - 0.009ms returns 0
T449C 000:610.781 JLINK_WriteReg(MSP, 0x20001000)
T449C 000:610.787 - 0.009ms returns 0
T449C 000:610.794 JLINK_WriteReg(PSP, 0x20001000)
T449C 000:610.801 - 0.009ms returns 0
T449C 000:610.808 JLINK_WriteReg(CFBP, 0x00000000)
T449C 000:610.814 - 0.009ms returns 0
T449C 000:610.822 JLINK_SetBPEx(Addr = 0x20000000, Type = 0xFFFFFFF2)
